
T1A94 000:463 SEGGER J-Link V4.80g Log File (0000ms, 0278ms total)
T1A94 000:463 DLL Compiled: Feb 13 2014 20:50:02 (0000ms, 0278ms total)
T1A94 000:463 Logging started @ 2017-08-16 13:20 (0000ms, 0278ms total)
T1A94 000:463 JLINK_SetWarnOutHandler(...) (0000ms, 0278ms total)
T1A94 000:463 JLINK_OpenEx(...)
Firmware: J-Link ARM V8 compiled Jul 17 2014 12:31:18
Hardware: V8.00
S/N: 286370559
Feature(s): RDI,FlashDL,FlashBP,JFlash  returns O.K. (0276ms, 0554ms total)
T1A94 000:739 JLINK_SetErrorOutHandler(...) (0000ms, 0554ms total)
T1A94 000:739 JLINK_ExecCommand("ProjectFile = "D:\单片机工程文件\STM32程序\STM32F429\STM32F429_Test\Project\RVMDK（uv5）\JLinkSettings.ini"", ...)  returns 0x00 (0000ms, 0554ms total)
T1A94 000:739 JLINK_ExecCommand("Device = STM32F429IG", ...)Device "STM32F429IG" selected (1024 KB flash, 192 KB RAM).  returns 0x00 (0004ms, 0558ms total)
T1A94 000:743 JLINK_ExecCommand("DisableConnectionTimeout", ...)  returns 0x01 (0000ms, 0558ms total)
T1A94 000:743 JLINK_GetHardwareVersion()  returns 0x13880 (0000ms, 0558ms total)
T1A94 000:743 JLINK_GetDLLVersion()  returns 48007 (0000ms, 0558ms total)
T1A94 000:743 JLINK_GetFirmwareString(...) (0000ms, 0558ms total)
T1A94 000:758 JLINK_GetDLLVersion()  returns 48007 (0000ms, 0558ms total)
T1A94 000:758 JLINK_GetCompileDateTime() (0000ms, 0558ms total)
T1A94 000:761 JLINK_GetFirmwareString(...) (0000ms, 0558ms total)
T1A94 000:765 JLINK_GetHardwareVersion()  returns 0x13880 (0000ms, 0558ms total)
T1A94 000:775 JLINK_TIF_Select(JLINKARM_TIF_SWD)  returns 0x00 (0004ms, 0562ms total)
T1A94 000:779 JLINK_SetSpeed(1000) (0001ms, 0563ms total)
T1A94 000:780 JLINK_GetId() >0x108 TIF>Found SWD-DP with ID 0x2BA01477 >0x0D TIF> >0x28 TIF> >0x0D TIF> >0x28 TIF> >0x0D TIF> >0x21 TIF> >0x0D TIF> >0x28 TIF> >0x0D TIF> >0x28 TIF> >0x0D TIF> >0x28 TIF> >0x0D TIF> >0x21 TIF> >0x0D TIF> >0x21 TIF> >0x0D TIF> >0x28 TIF> >0x0D TIF> >0x21 TIF> >0x0D TIF> >0x21 TIF> >0x0D TIF> >0x28 TIF> >0x0D TIF> >0x21 TIF> >0x0D TIF> >0x21 TIF> >0x108 TIF>Found SWD-DP with ID 0x2BA01477 >0x0D TIF> >0x21 TIF> >0x0D TIF> >0x28 TIF> >0x0D TIF> >0x28 TIF> >0x0D TIF> >0x21 TIF>
 >0x0D TIF> >0x28 TIF> >0x0D TIF> >0x21 TIF> >0x0D TIF> >0x21 TIF> >0x0D TIF> >0x21 TIF> >0x0D TIF> >0x21 TIF> >0x0D TIF> >0x28 TIF> >0x0D TIF> >0x28 TIF> >0x0D TIF> >0x21 TIF> >0x0D TIF> >0x28 TIF> >0x0D TIF> >0x28 TIF> >0x0D TIF> >0x28 TIF> >0x0D TIF> >0x21 TIF> >0x0D TIF> >0x21 TIF> >0x0D TIF> >0x28 TIF> >0x0D TIF> >0x21 TIF> >0x0D TIF> >0x21 TIF>Found Cortex-M4 r0p1, Little endian. -- CPU_WriteMem(4 bytes @ 0xE0002000) -- CPU_ReadMem(4 bytes @ 0xE000EDF0) -- CPU_ReadMem(4 bytes @ 0xE0002000)
FPUnit: 6 code (BP) slots and 2 literal slots -- CPU_ReadMem(4 bytes @ 0xE000EDFC) -- CPU_ReadMem(4 bytes @ 0xE0001000) -- CPU_WriteMem(4 bytes @ 0xE0001000) -- CPU_ReadMem(4 bytes @ 0xE00FF010)TPIU fitted. -- CPU_ReadMem(4 bytes @ 0xE00FF014)ETM fitted. -- CPU_ReadMem(4 bytes @ 0xE00FF018) >0x0D TIF> >0x21 TIF>  returns 0x2BA01477 (0104ms, 0667ms total)
T1A94 000:884 JLINK_GetDeviceFamily()  returns 14 (0000ms, 0667ms total)
T1A94 000:887 JLINK_ReadMem (0xE00FFFF0, 0x0010 Bytes, ...) -- CPU is running -- CPU_ReadMem(16 bytes @ 0xE00FFFF0) -- Data:  0D 00 00 00 10 00 00 00 05 00 00 00 B1 00 00 00  returns 0x00 (0002ms, 0669ms total)
T1A94 000:889 JLINK_ReadMem (0xE00FFFD0, 0x0020 Bytes, ...) -- CPU is running -- CPU_ReadMem(32 bytes @ 0xE00FFFD0) -- Data:  00 00 00 00 00 00 00 00 00 00 00 00 00 00 00 00 ...  returns 0x00 (0002ms, 0671ms total)
T1A94 000:891 JLINK_ReadMem (0xE00FF000, 0x0018 Bytes, ...) -- CPU is running -- CPU_ReadMem(24 bytes @ 0xE00FF000) -- Data:  03 F0 F0 FF 03 20 F0 FF 03 30 F0 FF 03 10 F0 FF ...  returns 0x00 (0001ms, 0672ms total)
T1A94 000:892 JLINK_ReadMemU32(0xE000ED00, 0x0001 Items, ...) -- CPU is running -- CPU_ReadMem(4 bytes @ 0xE000ED00) -- Data:  41 C2 0F 41  returns 0x01 (0001ms, 0673ms total)
T1A94 000:893 JLINK_ReadMemU32(0xE000EF40, 0x0001 Items, ...) -- CPU is running -- CPU_ReadMem(4 bytes @ 0xE000EF40) -- Data:  21 00 11 10  returns 0x01 (0001ms, 0674ms total)
T1A94 000:894 JLINK_ReadMemU32(0xE000EF44, 0x0001 Items, ...) -- CPU is running -- CPU_ReadMem(4 bytes @ 0xE000EF44) -- Data:  11 00 00 11  returns 0x01 (0001ms, 0675ms total)
T1A94 000:895 JLINK_SetResetType(JLINKARM_RESET_TYPE_NORMAL)  returns JLINKARM_RESET_TYPE_NORMAL (0000ms, 0675ms total)
T1A94 000:895 JLINK_Reset() -- CPU is running -- CPU_WriteMem(4 bytes @ 0xE000EDF0) -- CPU is running -- CPU_WriteMem(4 bytes @ 0xE000EDFC) >0x35 TIF> -- CPU is running -- CPU_WriteMem(4 bytes @ 0xE000ED0C) -- CPU is running -- CPU_ReadMem(4 bytes @ 0xE000EDF0) -- CPU is running -- CPU_ReadMem(4 bytes @ 0xE000EDF0) -- CPU is running -- CPU_WriteMem(4 bytes @ 0xE000EDF0) -- CPU is running -- CPU_WriteMem(4 bytes @ 0xE000EDFC) -- CPU is running -- CPU_ReadMem(4 bytes @ 0xE000EDF0)
 -- CPU_WriteMem(4 bytes @ 0xE0002000) -- CPU_ReadMem(4 bytes @ 0xE000EDFC) -- CPU_ReadMem(4 bytes @ 0xE0001000) (0028ms, 0703ms total)
T1A94 000:923 JLINK_Halt()  returns 0x00 (0000ms, 0703ms total)
T1A94 000:923 JLINK_IsHalted()  returns TRUE (0000ms, 0703ms total)
T1A94 000:923 JLINK_ReadMemU32(0xE000EDF0, 0x0001 Items, ...) -- CPU_ReadMem(4 bytes @ 0xE000EDF0) -- Data:  03 00 03 00  returns 0x01 (0001ms, 0704ms total)
T1A94 000:924 JLINK_WriteU32(0xE000EDF0, 0xA05F0003) -- CPU_WriteMem(4 bytes @ 0xE000EDF0)  returns 0x00 (0001ms, 0705ms total)
T1A94 000:925 JLINK_WriteU32(0xE000EDFC, 0x01000000) -- CPU_WriteMem(4 bytes @ 0xE000EDFC)  returns 0x00 (0001ms, 0706ms total)
T1A94 000:935 JLINK_GetHWStatus(...)  returns 0x00 (0001ms, 0707ms total)
T1A94 000:944 JLINK_GetNumBPUnits(Type = 0xFFFFFF00)  returns 0x06 (0000ms, 0707ms total)
T1A94 000:944 JLINK_GetNumBPUnits(Type = 0xF0)  returns 0x2000 (0000ms, 0707ms total)
T1A94 000:944 JLINK_GetNumWPUnits()  returns 0x04 (0000ms, 0707ms total)
T1A94 000:949 JLINK_GetSpeed()  returns 0x3E8 (0000ms, 0707ms total)
T1A94 000:954 JLINK_ReadMemU32(0xE000E004, 0x0001 Items, ...) -- CPU_ReadMem(4 bytes @ 0xE000E004) -- Data:  02 00 00 00  returns 0x01 (0001ms, 0708ms total)
T1A94 000:955 JLINK_ReadMemU32(0xE000E004, 0x0001 Items, ...) -- CPU_ReadMem(4 bytes @ 0xE000E004) -- Data:  02 00 00 00  returns 0x01 (0001ms, 0709ms total)
T1A94 000:956 JLINK_WriteMem(0xE0001000, 0x001C Bytes, ...) -- Data:  01 00 00 00 00 00 00 00 00 00 00 00 00 00 00 00 ... -- CPU_WriteMem(28 bytes @ 0xE0001000)  returns 0x1C (0002ms, 0711ms total)
T1A94 000:958 JLINK_ReadMem (0xE0001000, 0x001C Bytes, ...) -- CPU_ReadMem(28 bytes @ 0xE0001000) -- Data:  01 00 00 40 00 00 00 00 00 00 00 00 00 00 00 00 ...  returns 0x00 (0002ms, 0713ms total)
T1A94 000:960 JLINK_Halt()  returns 0x00 (0000ms, 0713ms total)
T1A94 000:960 JLINK_IsHalted()  returns TRUE (0000ms, 0713ms total)
T1A94 000:963 JLINK_WriteMem(0x20000000, 0x0180 Bytes, ...) -- Data:  00 BE 0A E0 0D 78 2D 06 68 40 08 24 40 00 00 D3 ... -- CPU_WriteMem(384 bytes @ 0x20000000)  returns 0x180 (0007ms, 0720ms total)
T1A94 000:970 JLINK_WriteReg(R0, 0x08000000)  returns 0x00 (0000ms, 0720ms total)
T1A94 000:970 JLINK_WriteReg(R1, 0x017D7840)  returns 0x00 (0000ms, 0720ms total)
T1A94 000:970 JLINK_WriteReg(R2, 0x00000001)  returns 0x00 (0000ms, 0720ms total)
T1A94 000:970 JLINK_WriteReg(R3, 0x00000000)  returns 0x00 (0000ms, 0720ms total)
T1A94 000:970 JLINK_WriteReg(R4, 0x00000000)  returns 0x00 (0000ms, 0720ms total)
T1A94 000:970 JLINK_WriteReg(R5, 0x00000000)  returns 0x00 (0000ms, 0720ms total)
T1A94 000:970 JLINK_WriteReg(R6, 0x00000000)  returns 0x00 (0000ms, 0720ms total)
T1A94 000:970 JLINK_WriteReg(R7, 0x00000000)  returns 0x00 (0000ms, 0720ms total)
T1A94 000:970 JLINK_WriteReg(R8, 0x00000000)  returns 0x00 (0000ms, 0720ms total)
T1A94 000:970 JLINK_WriteReg(R9, 0x2000017C)  returns 0x00 (0000ms, 0720ms total)
T1A94 000:970 JLINK_WriteReg(R10, 0x00000000)  returns 0x00 (0000ms, 0720ms total)
T1A94 000:970 JLINK_WriteReg(R11, 0x00000000)  returns 0x00 (0000ms, 0720ms total)
T1A94 000:970 JLINK_WriteReg(R12, 0x00000000)  returns 0x00 (0000ms, 0720ms total)
T1A94 000:970 JLINK_WriteReg(R13 (SP), 0x20001000)  returns 0x00 (0000ms, 0720ms total)
T1A94 000:970 JLINK_WriteReg(R14, 0x20000001)  returns 0x00 (0000ms, 0720ms total)
T1A94 000:970 JLINK_WriteReg(R15 (PC), 0x20000054)  returns 0x00 (0000ms, 0720ms total)
T1A94 000:970 JLINK_WriteReg(XPSR, 0x01000000)  returns 0x00 (0000ms, 0720ms total)
T1A94 000:970 JLINK_WriteReg(MSP, 0x20001000)  returns 0x00 (0000ms, 0720ms total)
T1A94 000:970 JLINK_WriteReg(PSP, 0x20001000)  returns 0x00 (0000ms, 0720ms total)
T1A94 000:970 JLINK_WriteReg(CFBP, 0x00000000)  returns 0x00 (0000ms, 0720ms total)
T1A94 000:970 JLINK_SetBPEx(Addr = 0x20000000, Type = 0xFFFFFFF2) -- CPU_ReadMem(2 bytes @ 0x20000000)  returns 0x00000001 (0002ms, 0722ms total)
T1A94 000:972 JLINK_Go() -- CPU_WriteMem(2 bytes @ 0x20000000) -- CPU_WriteMem(4 bytes @ 0xE0002008) -- CPU_WriteMem(4 bytes @ 0xE000200C) -- CPU_WriteMem(4 bytes @ 0xE0002010) -- CPU_WriteMem(4 bytes @ 0xE0002014) -- CPU_WriteMem(4 bytes @ 0xE0002018) -- CPU_WriteMem(4 bytes @ 0xE000201C) -- CPU_WriteMem(4 bytes @ 0xE0001004) (0011ms, 0733ms total)
T1A94 000:983 JLINK_IsHalted() -- CPU_ReadMem(2 bytes @ 0x20000000)  returns TRUE (0006ms, 0739ms total)
T1A94 000:989 JLINK_ReadReg(R15 (PC))  returns 0x20000000 (0000ms, 0733ms total)
T1A94 000:989 JLINK_ClrBPEx(BPHandle = 0x00000001)  returns 0x00 (0000ms, 0733ms total)
T1A94 000:989 JLINK_ReadReg(R0)  returns 0x00000000 (0000ms, 0733ms total)
T1A94 000:989 JLINK_WriteReg(R0, 0x08000000)  returns 0x00 (0000ms, 0733ms total)
T1A94 000:989 JLINK_WriteReg(R1, 0x00004000)  returns 0x00 (0000ms, 0733ms total)
T1A94 000:989 JLINK_WriteReg(R2, 0x000000FF)  returns 0x00 (0000ms, 0733ms total)
T1A94 000:989 JLINK_WriteReg(R3, 0x00000000)  returns 0x00 (0000ms, 0733ms total)
T1A94 000:989 JLINK_WriteReg(R4, 0x00000000)  returns 0x00 (0000ms, 0733ms total)
T1A94 000:989 JLINK_WriteReg(R5, 0x00000000)  returns 0x00 (0000ms, 0733ms total)
T1A94 000:989 JLINK_WriteReg(R6, 0x00000000)  returns 0x00 (0000ms, 0733ms total)
T1A94 000:989 JLINK_WriteReg(R7, 0x00000000)  returns 0x00 (0000ms, 0733ms total)
T1A94 000:989 JLINK_WriteReg(R8, 0x00000000)  returns 0x00 (0000ms, 0733ms total)
T1A94 000:989 JLINK_WriteReg(R9, 0x2000017C)  returns 0x00 (0000ms, 0733ms total)
T1A94 000:989 JLINK_WriteReg(R10, 0x00000000)  returns 0x00 (0001ms, 0734ms total)
T1A94 000:990 JLINK_WriteReg(R11, 0x00000000)  returns 0x00 (0000ms, 0734ms total)
T1A94 000:990 JLINK_WriteReg(R12, 0x00000000)  returns 0x00 (0000ms, 0734ms total)
T1A94 000:990 JLINK_WriteReg(R13 (SP), 0x20001000)  returns 0x00 (0000ms, 0734ms total)
T1A94 000:990 JLINK_WriteReg(R14, 0x20000001)  returns 0x00 (0000ms, 0734ms total)
T1A94 000:990 JLINK_WriteReg(R15 (PC), 0x20000020)  returns 0x00 (0000ms, 0734ms total)
T1A94 000:990 JLINK_WriteReg(XPSR, 0x01000000)  returns 0x00 (0000ms, 0734ms total)
T1A94 000:990 JLINK_WriteReg(MSP, 0x20001000)  returns 0x00 (0000ms, 0734ms total)
T1A94 000:990 JLINK_WriteReg(PSP, 0x20001000)  returns 0x00 (0000ms, 0734ms total)
T1A94 000:990 JLINK_WriteReg(CFBP, 0x00000000)  returns 0x00 (0000ms, 0734ms total)
T1A94 000:990 JLINK_SetBPEx(Addr = 0x20000000, Type = 0xFFFFFFF2)  returns 0x00000002 (0000ms, 0734ms total)
T1A94 000:990 JLINK_Go() (0003ms, 0737ms total)
T1A94 000:993 JLINK_IsHalted() -- CPU_ReadMem(2 bytes @ 0x20000000)  returns TRUE (0007ms, 0744ms total)
T1A94 001:000 JLINK_ReadReg(R15 (PC))  returns 0x20000000 (0000ms, 0737ms total)
T1A94 001:000 JLINK_ClrBPEx(BPHandle = 0x00000002)  returns 0x00 (0000ms, 0737ms total)
T1A94 001:000 JLINK_ReadReg(R0)  returns 0x00000001 (0000ms, 0737ms total)
T1A94 001:000 JLINK_WriteReg(R0, 0x08000000)  returns 0x00 (0000ms, 0737ms total)
T1A94 001:000 JLINK_WriteReg(R1, 0x00004000)  returns 0x00 (0000ms, 0737ms total)
T1A94 001:000 JLINK_WriteReg(R2, 0x000000FF)  returns 0x00 (0000ms, 0737ms total)
T1A94 001:000 JLINK_WriteReg(R3, 0x00000000)  returns 0x00 (0000ms, 0737ms total)
T1A94 001:000 JLINK_WriteReg(R4, 0x00000000)  returns 0x00 (0000ms, 0737ms total)
T1A94 001:000 JLINK_WriteReg(R5, 0x00000000)  returns 0x00 (0000ms, 0737ms total)
T1A94 001:000 JLINK_WriteReg(R6, 0x00000000)  returns 0x00 (0000ms, 0737ms total)
T1A94 001:000 JLINK_WriteReg(R7, 0x00000000)  returns 0x00 (0000ms, 0737ms total)
T1A94 001:000 JLINK_WriteReg(R8, 0x00000000)  returns 0x00 (0000ms, 0737ms total)
T1A94 001:000 JLINK_WriteReg(R9, 0x2000017C)  returns 0x00 (0000ms, 0737ms total)
T1A94 001:000 JLINK_WriteReg(R10, 0x00000000)  returns 0x00 (0000ms, 0737ms total)
T1A94 001:000 JLINK_WriteReg(R11, 0x00000000)  returns 0x00 (0000ms, 0737ms total)
T1A94 001:000 JLINK_WriteReg(R12, 0x00000000)  returns 0x00 (0000ms, 0737ms total)
T1A94 001:000 JLINK_WriteReg(R13 (SP), 0x20001000)  returns 0x00 (0000ms, 0737ms total)
T1A94 001:000 JLINK_WriteReg(R14, 0x20000001)  returns 0x00 (0001ms, 0738ms total)
T1A94 001:001 JLINK_WriteReg(R15 (PC), 0x200000BC)  returns 0x00 (0000ms, 0738ms total)
T1A94 001:001 JLINK_WriteReg(XPSR, 0x01000000)  returns 0x00 (0000ms, 0738ms total)
T1A94 001:001 JLINK_WriteReg(MSP, 0x20001000)  returns 0x00 (0000ms, 0738ms total)
T1A94 001:001 JLINK_WriteReg(PSP, 0x20001000)  returns 0x00 (0000ms, 0738ms total)
T1A94 001:001 JLINK_WriteReg(CFBP, 0x00000000)  returns 0x00 (0000ms, 0738ms total)
T1A94 001:001 JLINK_SetBPEx(Addr = 0x20000000, Type = 0xFFFFFFF2)  returns 0x00000003 (0000ms, 0738ms total)
T1A94 001:001 JLINK_Go() (0003ms, 0741ms total)
T1A94 001:004 JLINK_IsHalted()  returns FALSE (0001ms, 0742ms total)
T1A94 001:040 JLINK_IsHalted()  returns FALSE (0001ms, 0742ms total)
T1A94 001:043 JLINK_IsHalted()  returns FALSE (0000ms, 0741ms total)
T1A94 001:045 JLINK_IsHalted()  returns FALSE (0000ms, 0741ms total)
T1A94 001:047 JLINK_IsHalted()  returns FALSE (0000ms, 0741ms total)
T1A94 001:049 JLINK_IsHalted()  returns FALSE (0000ms, 0741ms total)
T1A94 001:051 JLINK_IsHalted()  returns FALSE (0000ms, 0741ms total)
T1A94 001:053 JLINK_IsHalted()  returns FALSE (0000ms, 0741ms total)
T1A94 001:056 JLINK_IsHalted()  returns FALSE (0001ms, 0742ms total)
T1A94 001:059 JLINK_IsHalted()  returns FALSE (0001ms, 0742ms total)
T1A94 001:063 JLINK_IsHalted()  returns FALSE (0001ms, 0742ms total)
T1A94 001:069 JLINK_IsHalted()  returns FALSE (0001ms, 0742ms total)
T1A94 001:072 JLINK_IsHalted()  returns FALSE (0000ms, 0741ms total)
T1A94 001:074 JLINK_IsHalted()  returns FALSE (0001ms, 0742ms total)
T1A94 001:077 JLINK_IsHalted()  returns FALSE (0001ms, 0742ms total)
T1A94 001:080 JLINK_IsHalted()  returns FALSE (0001ms, 0742ms total)
T1A94 001:083 JLINK_IsHalted()  returns FALSE (0000ms, 0741ms total)
T1A94 001:085 JLINK_IsHalted()  returns FALSE (0000ms, 0741ms total)
T1A94 001:087 JLINK_IsHalted()  returns FALSE (0000ms, 0741ms total)
T1A94 001:089 JLINK_IsHalted()  returns FALSE (0000ms, 0741ms total)
T1A94 001:091 JLINK_IsHalted()  returns FALSE (0000ms, 0741ms total)
T1A94 001:093 JLINK_IsHalted()  returns FALSE (0000ms, 0741ms total)
T1A94 001:095 JLINK_IsHalted()  returns FALSE (0001ms, 0742ms total)
T1A94 001:098 JLINK_IsHalted()  returns FALSE (0001ms, 0742ms total)
T1A94 001:101 JLINK_IsHalted()  returns FALSE (0001ms, 0742ms total)
T1A94 001:104 JLINK_IsHalted()  returns FALSE (0001ms, 0742ms total)
T1A94 001:107 JLINK_IsHalted()  returns FALSE (0001ms, 0742ms total)
T1A94 001:110 JLINK_IsHalted()  returns FALSE (0001ms, 0742ms total)
T1A94 001:113 JLINK_IsHalted()  returns FALSE (0001ms, 0742ms total)
T1A94 001:115 JLINK_IsHalted()  returns FALSE (0001ms, 0742ms total)
T1A94 001:118 JLINK_IsHalted()  returns FALSE (0001ms, 0742ms total)
T1A94 001:121 JLINK_IsHalted()  returns FALSE (0001ms, 0742ms total)
T1A94 001:124 JLINK_IsHalted()  returns FALSE (0001ms, 0742ms total)
T1A94 001:131 JLINK_IsHalted()  returns FALSE (0000ms, 0741ms total)
T1A94 001:133 JLINK_IsHalted()  returns FALSE (0000ms, 0741ms total)
T1A94 001:135 JLINK_IsHalted()  returns FALSE (0000ms, 0741ms total)
T1A94 001:137 JLINK_IsHalted()  returns FALSE (0001ms, 0742ms total)
T1A94 001:140 JLINK_IsHalted()  returns FALSE (0001ms, 0742ms total)
T1A94 001:143 JLINK_IsHalted()  returns FALSE (0001ms, 0742ms total)
T1A94 001:146 JLINK_IsHalted()  returns FALSE (0001ms, 0742ms total)
T1A94 001:149 JLINK_IsHalted()  returns FALSE (0001ms, 0742ms total)
T1A94 001:152 JLINK_IsHalted()  returns FALSE (0001ms, 0742ms total)
T1A94 001:155 JLINK_IsHalted()  returns FALSE (0001ms, 0742ms total)
T1A94 001:158 JLINK_IsHalted()  returns FALSE (0001ms, 0742ms total)
T1A94 001:161 JLINK_IsHalted()  returns FALSE (0001ms, 0742ms total)
T1A94 001:164 JLINK_IsHalted()  returns FALSE (0001ms, 0742ms total)
T1A94 001:167 JLINK_IsHalted()  returns FALSE (0000ms, 0741ms total)
T1A94 001:169 JLINK_IsHalted()  returns FALSE (0001ms, 0742ms total)
T1A94 001:175 JLINK_IsHalted()  returns FALSE (0000ms, 0741ms total)
T1A94 001:177 JLINK_IsHalted()  returns FALSE (0000ms, 0741ms total)
T1A94 001:179 JLINK_IsHalted()  returns FALSE (0001ms, 0742ms total)
T1A94 001:182 JLINK_IsHalted()  returns FALSE (0001ms, 0742ms total)
T1A94 001:185 JLINK_IsHalted()  returns FALSE (0001ms, 0742ms total)
T1A94 001:188 JLINK_IsHalted()  returns FALSE (0001ms, 0742ms total)
T1A94 001:191 JLINK_IsHalted()  returns FALSE (0001ms, 0742ms total)
T1A94 001:194 JLINK_IsHalted()  returns FALSE (0001ms, 0742ms total)
T1A94 001:197 JLINK_IsHalted()  returns FALSE (0000ms, 0741ms total)
T1A94 001:199 JLINK_IsHalted()  returns FALSE (0001ms, 0742ms total)
T1A94 001:202 JLINK_IsHalted()  returns FALSE (0001ms, 0742ms total)
T1A94 001:205 JLINK_IsHalted()  returns FALSE (0001ms, 0742ms total)
T1A94 001:208 JLINK_IsHalted()  returns FALSE (0000ms, 0741ms total)
T1A94 001:210 JLINK_IsHalted()  returns FALSE (0000ms, 0741ms total)
T1A94 001:212 JLINK_IsHalted()  returns FALSE (0000ms, 0741ms total)
T1A94 001:214 JLINK_IsHalted()  returns FALSE (0000ms, 0741ms total)
T1A94 001:216 JLINK_IsHalted()  returns FALSE (0000ms, 0741ms total)
T1A94 001:218 JLINK_IsHalted()  returns FALSE (0000ms, 0741ms total)
T1A94 001:220 JLINK_IsHalted()  returns FALSE (0000ms, 0741ms total)
T1A94 001:223 JLINK_IsHalted()  returns FALSE (0001ms, 0742ms total)
T1A94 001:226 JLINK_IsHalted()  returns FALSE (0001ms, 0742ms total)
T1A94 001:229 JLINK_IsHalted()  returns FALSE (0001ms, 0742ms total)
T1A94 001:237 JLINK_IsHalted()  returns FALSE (0001ms, 0742ms total)
T1A94 001:239 JLINK_IsHalted()  returns FALSE (0001ms, 0742ms total)
T1A94 001:242 JLINK_IsHalted()  returns FALSE (0001ms, 0742ms total)
T1A94 001:245 JLINK_IsHalted()  returns FALSE (0001ms, 0742ms total)
T1A94 001:248 JLINK_IsHalted()  returns FALSE (0001ms, 0742ms total)
T1A94 001:251 JLINK_IsHalted()  returns FALSE (0000ms, 0741ms total)
T1A94 001:253 JLINK_IsHalted()  returns FALSE (0000ms, 0741ms total)
T1A94 001:255 JLINK_IsHalted()  returns FALSE (0000ms, 0741ms total)
T1A94 001:257 JLINK_IsHalted()  returns FALSE (0000ms, 0741ms total)
T1A94 001:259 JLINK_IsHalted()  returns FALSE (0000ms, 0741ms total)
T1A94 001:261 JLINK_IsHalted()  returns FALSE (0000ms, 0741ms total)
T1A94 001:263 JLINK_IsHalted()  returns FALSE (0001ms, 0742ms total)
T1A94 001:266 JLINK_IsHalted()  returns FALSE (0001ms, 0742ms total)
T1A94 001:269 JLINK_IsHalted()  returns FALSE (0001ms, 0742ms total)
T1A94 001:272 JLINK_IsHalted()  returns FALSE (0001ms, 0742ms total)
T1A94 001:275 JLINK_IsHalted()  returns FALSE (0001ms, 0742ms total)
T1A94 001:278 JLINK_IsHalted()  returns FALSE (0001ms, 0742ms total)
T1A94 001:282 JLINK_IsHalted()  returns FALSE (0001ms, 0742ms total)
T1A94 001:285 JLINK_IsHalted()  returns FALSE (0001ms, 0742ms total)
T1A94 001:288 JLINK_IsHalted()  returns FALSE (0001ms, 0742ms total)
T1A94 001:291 JLINK_IsHalted()  returns FALSE (0001ms, 0742ms total)
T1A94 001:296 JLINK_IsHalted()  returns FALSE (0000ms, 0741ms total)
T1A94 001:298 JLINK_IsHalted()  returns FALSE (0000ms, 0741ms total)
T1A94 001:300 JLINK_IsHalted()  returns FALSE (0000ms, 0741ms total)
T1A94 001:302 JLINK_IsHalted()  returns FALSE (0000ms, 0741ms total)
T1A94 001:304 JLINK_IsHalted()  returns FALSE (0001ms, 0742ms total)
T1A94 001:307 JLINK_IsHalted()  returns FALSE (0001ms, 0742ms total)
T1A94 001:310 JLINK_IsHalted()  returns FALSE (0001ms, 0742ms total)
T1A94 001:313 JLINK_IsHalted()  returns FALSE (0001ms, 0742ms total)
T1A94 001:316 JLINK_IsHalted()  returns FALSE (0001ms, 0742ms total)
T1A94 001:319 JLINK_IsHalted()  returns FALSE (0001ms, 0742ms total)
T1A94 001:322 JLINK_IsHalted()  returns FALSE (0000ms, 0741ms total)
T1A94 001:324 JLINK_IsHalted()  returns FALSE (0001ms, 0742ms total)
T1A94 001:327 JLINK_IsHalted()  returns FALSE (0001ms, 0742ms total)
T1A94 001:330 JLINK_IsHalted()  returns FALSE (0001ms, 0742ms total)
T1A94 001:333 JLINK_IsHalted()  returns FALSE (0001ms, 0742ms total)
T1A94 001:336 JLINK_IsHalted()  returns FALSE (0000ms, 0741ms total)
T1A94 001:338 JLINK_IsHalted()  returns FALSE (0000ms, 0741ms total)
T1A94 001:340 JLINK_IsHalted() -- CPU_ReadMem(2 bytes @ 0x20000000)  returns TRUE (0007ms, 0748ms total)
T1A94 001:347 JLINK_ReadReg(R15 (PC))  returns 0x20000000 (0000ms, 0741ms total)
T1A94 001:347 JLINK_ClrBPEx(BPHandle = 0x00000003)  returns 0x00 (0000ms, 0741ms total)
T1A94 001:347 JLINK_ReadReg(R0)  returns 0x00000000 (0000ms, 0741ms total)
T1A94 001:347 JLINK_WriteReg(R0, 0x00000001)  returns 0x00 (0000ms, 0741ms total)
T1A94 001:347 JLINK_WriteReg(R1, 0x00004000)  returns 0x00 (0000ms, 0741ms total)
T1A94 001:347 JLINK_WriteReg(R2, 0x000000FF)  returns 0x00 (0000ms, 0741ms total)
T1A94 001:347 JLINK_WriteReg(R3, 0x00000000)  returns 0x00 (0000ms, 0741ms total)
T1A94 001:347 JLINK_WriteReg(R4, 0x00000000)  returns 0x00 (0000ms, 0741ms total)
T1A94 001:347 JLINK_WriteReg(R5, 0x00000000)  returns 0x00 (0000ms, 0741ms total)
T1A94 001:347 JLINK_WriteReg(R6, 0x00000000)  returns 0x00 (0000ms, 0741ms total)
T1A94 001:347 JLINK_WriteReg(R7, 0x00000000)  returns 0x00 (0000ms, 0741ms total)
T1A94 001:347 JLINK_WriteReg(R8, 0x00000000)  returns 0x00 (0000ms, 0741ms total)
T1A94 001:347 JLINK_WriteReg(R9, 0x2000017C)  returns 0x00 (0000ms, 0741ms total)
T1A94 001:347 JLINK_WriteReg(R10, 0x00000000)  returns 0x00 (0000ms, 0741ms total)
T1A94 001:347 JLINK_WriteReg(R11, 0x00000000)  returns 0x00 (0000ms, 0741ms total)
T1A94 001:347 JLINK_WriteReg(R12, 0x00000000)  returns 0x00 (0000ms, 0741ms total)
T1A94 001:347 JLINK_WriteReg(R13 (SP), 0x20001000)  returns 0x00 (0000ms, 0741ms total)
T1A94 001:347 JLINK_WriteReg(R14, 0x20000001)  returns 0x00 (0000ms, 0741ms total)
T1A94 001:347 JLINK_WriteReg(R15 (PC), 0x20000082)  returns 0x00 (0000ms, 0741ms total)
T1A94 001:347 JLINK_WriteReg(XPSR, 0x01000000)  returns 0x00 (0000ms, 0741ms total)
T1A94 001:347 JLINK_WriteReg(MSP, 0x20001000)  returns 0x00 (0000ms, 0741ms total)
T1A94 001:347 JLINK_WriteReg(PSP, 0x20001000)  returns 0x00 (0000ms, 0741ms total)
T1A94 001:347 JLINK_WriteReg(CFBP, 0x00000000)  returns 0x00 (0000ms, 0741ms total)
T1A94 001:347 JLINK_SetBPEx(Addr = 0x20000000, Type = 0xFFFFFFF2)  returns 0x00000004 (0000ms, 0741ms total)
T1A94 001:347 JLINK_Go() (0004ms, 0745ms total)
T1A94 001:351 JLINK_IsHalted() -- CPU_ReadMem(2 bytes @ 0x20000000)  returns TRUE (0007ms, 0752ms total)
T1A94 001:358 JLINK_ReadReg(R15 (PC))  returns 0x20000000 (0000ms, 0745ms total)
T1A94 001:358 JLINK_ClrBPEx(BPHandle = 0x00000004)  returns 0x00 (0000ms, 0745ms total)
T1A94 001:358 JLINK_ReadReg(R0)  returns 0x00000000 (0000ms, 0745ms total)
T1A94 001:413 JLINK_WriteMem(0x20000000, 0x0180 Bytes, ...) -- Data:  00 BE 0A E0 0D 78 2D 06 68 40 08 24 40 00 00 D3 ... -- CPU_WriteMem(384 bytes @ 0x20000000)  returns 0x180 (0007ms, 0752ms total)
T1A94 001:420 JLINK_WriteReg(R0, 0x08000000)  returns 0x00 (0000ms, 0752ms total)
T1A94 001:420 JLINK_WriteReg(R1, 0x017D7840)  returns 0x00 (0000ms, 0752ms total)
T1A94 001:420 JLINK_WriteReg(R2, 0x00000002)  returns 0x00 (0000ms, 0752ms total)
T1A94 001:420 JLINK_WriteReg(R3, 0x00000000)  returns 0x00 (0000ms, 0752ms total)
T1A94 001:420 JLINK_WriteReg(R4, 0x00000000)  returns 0x00 (0000ms, 0752ms total)
T1A94 001:420 JLINK_WriteReg(R5, 0x00000000)  returns 0x00 (0000ms, 0752ms total)
T1A94 001:420 JLINK_WriteReg(R6, 0x00000000)  returns 0x00 (0000ms, 0752ms total)
T1A94 001:420 JLINK_WriteReg(R7, 0x00000000)  returns 0x00 (0000ms, 0752ms total)
T1A94 001:420 JLINK_WriteReg(R8, 0x00000000)  returns 0x00 (0000ms, 0752ms total)
T1A94 001:420 JLINK_WriteReg(R9, 0x2000017C)  returns 0x00 (0000ms, 0752ms total)
T1A94 001:420 JLINK_WriteReg(R10, 0x00000000)  returns 0x00 (0000ms, 0752ms total)
T1A94 001:420 JLINK_WriteReg(R11, 0x00000000)  returns 0x00 (0000ms, 0752ms total)
T1A94 001:420 JLINK_WriteReg(R12, 0x00000000)  returns 0x00 (0001ms, 0753ms total)
T1A94 001:421 JLINK_WriteReg(R13 (SP), 0x20001000)  returns 0x00 (0000ms, 0753ms total)
T1A94 001:421 JLINK_WriteReg(R14, 0x20000001)  returns 0x00 (0000ms, 0753ms total)
T1A94 001:421 JLINK_WriteReg(R15 (PC), 0x20000054)  returns 0x00 (0000ms, 0753ms total)
T1A94 001:421 JLINK_WriteReg(XPSR, 0x01000000)  returns 0x00 (0000ms, 0753ms total)
T1A94 001:421 JLINK_WriteReg(MSP, 0x20001000)  returns 0x00 (0000ms, 0753ms total)
T1A94 001:421 JLINK_WriteReg(PSP, 0x20001000)  returns 0x00 (0000ms, 0753ms total)
T1A94 001:421 JLINK_WriteReg(CFBP, 0x00000000)  returns 0x00 (0000ms, 0753ms total)
T1A94 001:421 JLINK_SetBPEx(Addr = 0x20000000, Type = 0xFFFFFFF2) -- CPU_ReadMem(2 bytes @ 0x20000000)  returns 0x00000005 (0001ms, 0754ms total)
T1A94 001:422 JLINK_Go() -- CPU_WriteMem(2 bytes @ 0x20000000) (0004ms, 0758ms total)
T1A94 001:426 JLINK_IsHalted() -- CPU_ReadMem(2 bytes @ 0x20000000)  returns TRUE (0008ms, 0766ms total)
T1A94 001:434 JLINK_ReadReg(R15 (PC))  returns 0x20000000 (0000ms, 0758ms total)
T1A94 001:434 JLINK_ClrBPEx(BPHandle = 0x00000005)  returns 0x00 (0000ms, 0758ms total)
T1A94 001:434 JLINK_ReadReg(R0)  returns 0x00000000 (0000ms, 0758ms total)
T1A94 001:434 JLINK_WriteMem(0x20000180, 0x0400 Bytes, ...) -- Data:  28 04 00 20 C1 01 00 08 85 12 00 08 87 12 00 08 ... -- CPU_WriteMem(1024 bytes @ 0x20000180)  returns 0x400 (0015ms, 0773ms total)
T1A94 001:449 JLINK_WriteReg(R0, 0x08000000)  returns 0x00 (0000ms, 0773ms total)
T1A94 001:449 JLINK_WriteReg(R1, 0x00000400)  returns 0x00 (0000ms, 0773ms total)
T1A94 001:449 JLINK_WriteReg(R2, 0x20000180)  returns 0x00 (0000ms, 0773ms total)
T1A94 001:449 JLINK_WriteReg(R3, 0x00000000)  returns 0x00 (0000ms, 0773ms total)
T1A94 001:449 JLINK_WriteReg(R4, 0x00000000)  returns 0x00 (0000ms, 0773ms total)
T1A94 001:449 JLINK_WriteReg(R5, 0x00000000)  returns 0x00 (0000ms, 0773ms total)
T1A94 001:449 JLINK_WriteReg(R6, 0x00000000)  returns 0x00 (0000ms, 0773ms total)
T1A94 001:449 JLINK_WriteReg(R7, 0x00000000)  returns 0x00 (0000ms, 0773ms total)
T1A94 001:449 JLINK_WriteReg(R8, 0x00000000)  returns 0x00 (0000ms, 0773ms total)
T1A94 001:449 JLINK_WriteReg(R9, 0x2000017C)  returns 0x00 (0000ms, 0773ms total)
T1A94 001:449 JLINK_WriteReg(R10, 0x00000000)  returns 0x00 (0000ms, 0773ms total)
T1A94 001:449 JLINK_WriteReg(R11, 0x00000000)  returns 0x00 (0000ms, 0773ms total)
T1A94 001:449 JLINK_WriteReg(R12, 0x00000000)  returns 0x00 (0000ms, 0773ms total)
T1A94 001:449 JLINK_WriteReg(R13 (SP), 0x20001000)  returns 0x00 (0000ms, 0773ms total)
T1A94 001:449 JLINK_WriteReg(R14, 0x20000001)  returns 0x00 (0000ms, 0773ms total)
T1A94 001:449 JLINK_WriteReg(R15 (PC), 0x20000108)  returns 0x00 (0000ms, 0773ms total)
T1A94 001:449 JLINK_WriteReg(XPSR, 0x01000000)  returns 0x00 (0000ms, 0773ms total)
T1A94 001:449 JLINK_WriteReg(MSP, 0x20001000)  returns 0x00 (0000ms, 0773ms total)
T1A94 001:449 JLINK_WriteReg(PSP, 0x20001000)  returns 0x00 (0000ms, 0773ms total)
T1A94 001:449 JLINK_WriteReg(CFBP, 0x00000000)  returns 0x00 (0000ms, 0773ms total)
T1A94 001:449 JLINK_SetBPEx(Addr = 0x20000000, Type = 0xFFFFFFF2)  returns 0x00000006 (0000ms, 0773ms total)
T1A94 001:449 JLINK_Go() (0003ms, 0776ms total)
T1A94 001:452 JLINK_IsHalted()  returns FALSE (0001ms, 0777ms total)
T1A94 001:462 JLINK_IsHalted() -- CPU_ReadMem(2 bytes @ 0x20000000)  returns TRUE (0006ms, 0782ms total)
T1A94 001:468 JLINK_ReadReg(R15 (PC))  returns 0x20000000 (0000ms, 0776ms total)
T1A94 001:468 JLINK_ClrBPEx(BPHandle = 0x00000006)  returns 0x00 (0000ms, 0776ms total)
T1A94 001:468 JLINK_ReadReg(R0)  returns 0x00000000 (0000ms, 0776ms total)
T1A94 001:469 JLINK_WriteMem(0x20000180, 0x0400 Bytes, ...) -- Data:  00 70 00 40 19 5A 40 07 00 3C 02 40 88 ED 00 E0 ... -- CPU_WriteMem(1024 bytes @ 0x20000180)  returns 0x400 (0016ms, 0792ms total)
T1A94 001:485 JLINK_WriteReg(R0, 0x08000400)  returns 0x00 (0000ms, 0792ms total)
T1A94 001:485 JLINK_WriteReg(R1, 0x00000400)  returns 0x00 (0000ms, 0792ms total)
T1A94 001:485 JLINK_WriteReg(R2, 0x20000180)  returns 0x00 (0000ms, 0792ms total)
T1A94 001:485 JLINK_WriteReg(R3, 0x00000000)  returns 0x00 (0000ms, 0792ms total)
T1A94 001:485 JLINK_WriteReg(R4, 0x00000000)  returns 0x00 (0000ms, 0792ms total)
T1A94 001:485 JLINK_WriteReg(R5, 0x00000000)  returns 0x00 (0000ms, 0792ms total)
T1A94 001:485 JLINK_WriteReg(R6, 0x00000000)  returns 0x00 (0000ms, 0792ms total)
T1A94 001:485 JLINK_WriteReg(R7, 0x00000000)  returns 0x00 (0000ms, 0792ms total)
T1A94 001:485 JLINK_WriteReg(R8, 0x00000000)  returns 0x00 (0000ms, 0792ms total)
T1A94 001:485 JLINK_WriteReg(R9, 0x2000017C)  returns 0x00 (0000ms, 0792ms total)
T1A94 001:485 JLINK_WriteReg(R10, 0x00000000)  returns 0x00 (0000ms, 0792ms total)
T1A94 001:485 JLINK_WriteReg(R11, 0x00000000)  returns 0x00 (0000ms, 0792ms total)
T1A94 001:485 JLINK_WriteReg(R12, 0x00000000)  returns 0x00 (0000ms, 0792ms total)
T1A94 001:485 JLINK_WriteReg(R13 (SP), 0x20001000)  returns 0x00 (0000ms, 0792ms total)
T1A94 001:485 JLINK_WriteReg(R14, 0x20000001)  returns 0x00 (0000ms, 0792ms total)
T1A94 001:485 JLINK_WriteReg(R15 (PC), 0x20000108)  returns 0x00 (0000ms, 0792ms total)
T1A94 001:485 JLINK_WriteReg(XPSR, 0x01000000)  returns 0x00 (0000ms, 0792ms total)
T1A94 001:485 JLINK_WriteReg(MSP, 0x20001000)  returns 0x00 (0000ms, 0792ms total)
T1A94 001:485 JLINK_WriteReg(PSP, 0x20001000)  returns 0x00 (0000ms, 0792ms total)
T1A94 001:485 JLINK_WriteReg(CFBP, 0x00000000)  returns 0x00 (0000ms, 0792ms total)
T1A94 001:485 JLINK_SetBPEx(Addr = 0x20000000, Type = 0xFFFFFFF2)  returns 0x00000007 (0000ms, 0792ms total)
T1A94 001:485 JLINK_Go() (0003ms, 0795ms total)
T1A94 001:488 JLINK_IsHalted()  returns FALSE (0001ms, 0796ms total)
T1A94 001:490 JLINK_IsHalted()  returns FALSE (0001ms, 0796ms total)
T1A94 001:493 JLINK_IsHalted() -- CPU_ReadMem(2 bytes @ 0x20000000)  returns TRUE (0007ms, 0802ms total)
T1A94 001:500 JLINK_ReadReg(R15 (PC))  returns 0x20000000 (0000ms, 0795ms total)
T1A94 001:500 JLINK_ClrBPEx(BPHandle = 0x00000007)  returns 0x00 (0000ms, 0795ms total)
T1A94 001:500 JLINK_ReadReg(R0)  returns 0x00000000 (0000ms, 0795ms total)
T1A94 001:501 JLINK_WriteMem(0x20000180, 0x0400 Bytes, ...) -- Data:  00 22 00 23 00 20 4A 11 01 2A 02 D1 DA 4C 23 68 ... -- CPU_WriteMem(1024 bytes @ 0x20000180)  returns 0x400 (0016ms, 0811ms total)
T1A94 001:517 JLINK_WriteReg(R0, 0x08000800)  returns 0x00 (0000ms, 0811ms total)
T1A94 001:517 JLINK_WriteReg(R1, 0x00000400)  returns 0x00 (0000ms, 0811ms total)
T1A94 001:517 JLINK_WriteReg(R2, 0x20000180)  returns 0x00 (0000ms, 0811ms total)
T1A94 001:517 JLINK_WriteReg(R3, 0x00000000)  returns 0x00 (0000ms, 0811ms total)
T1A94 001:517 JLINK_WriteReg(R4, 0x00000000)  returns 0x00 (0000ms, 0811ms total)
T1A94 001:517 JLINK_WriteReg(R5, 0x00000000)  returns 0x00 (0000ms, 0811ms total)
T1A94 001:517 JLINK_WriteReg(R6, 0x00000000)  returns 0x00 (0000ms, 0811ms total)
T1A94 001:517 JLINK_WriteReg(R7, 0x00000000)  returns 0x00 (0000ms, 0811ms total)
T1A94 001:517 JLINK_WriteReg(R8, 0x00000000)  returns 0x00 (0000ms, 0811ms total)
T1A94 001:517 JLINK_WriteReg(R9, 0x2000017C)  returns 0x00 (0000ms, 0811ms total)
T1A94 001:517 JLINK_WriteReg(R10, 0x00000000)  returns 0x00 (0000ms, 0811ms total)
T1A94 001:517 JLINK_WriteReg(R11, 0x00000000)  returns 0x00 (0000ms, 0811ms total)
T1A94 001:517 JLINK_WriteReg(R12, 0x00000000)  returns 0x00 (0000ms, 0811ms total)
T1A94 001:517 JLINK_WriteReg(R13 (SP), 0x20001000)  returns 0x00 (0000ms, 0811ms total)
T1A94 001:517 JLINK_WriteReg(R14, 0x20000001)  returns 0x00 (0000ms, 0811ms total)
T1A94 001:517 JLINK_WriteReg(R15 (PC), 0x20000108)  returns 0x00 (0000ms, 0811ms total)
T1A94 001:517 JLINK_WriteReg(XPSR, 0x01000000)  returns 0x00 (0000ms, 0811ms total)
T1A94 001:517 JLINK_WriteReg(MSP, 0x20001000)  returns 0x00 (0000ms, 0811ms total)
T1A94 001:517 JLINK_WriteReg(PSP, 0x20001000)  returns 0x00 (0000ms, 0811ms total)
T1A94 001:517 JLINK_WriteReg(CFBP, 0x00000000)  returns 0x00 (0000ms, 0811ms total)
T1A94 001:517 JLINK_SetBPEx(Addr = 0x20000000, Type = 0xFFFFFFF2)  returns 0x00000008 (0000ms, 0811ms total)
T1A94 001:517 JLINK_Go() (0003ms, 0814ms total)
T1A94 001:520 JLINK_IsHalted()  returns FALSE (0001ms, 0815ms total)
T1A94 001:526 JLINK_IsHalted() -- CPU_ReadMem(2 bytes @ 0x20000000)  returns TRUE (0006ms, 0820ms total)
T1A94 001:532 JLINK_ReadReg(R15 (PC))  returns 0x20000000 (0000ms, 0814ms total)
T1A94 001:532 JLINK_ClrBPEx(BPHandle = 0x00000008)  returns 0x00 (0000ms, 0814ms total)
T1A94 001:532 JLINK_ReadReg(R0)  returns 0x00000000 (0000ms, 0814ms total)
T1A94 001:532 JLINK_WriteMem(0x20000180, 0x0400 Bytes, ...) -- Data:  0C 33 1A 60 70 47 39 B1 7B 4A 10 32 12 68 02 43 ... -- CPU_WriteMem(1024 bytes @ 0x20000180)  returns 0x400 (0016ms, 0830ms total)
T1A94 001:548 JLINK_WriteReg(R0, 0x08000C00)  returns 0x00 (0000ms, 0830ms total)
T1A94 001:548 JLINK_WriteReg(R1, 0x00000400)  returns 0x00 (0000ms, 0830ms total)
T1A94 001:548 JLINK_WriteReg(R2, 0x20000180)  returns 0x00 (0000ms, 0830ms total)
T1A94 001:548 JLINK_WriteReg(R3, 0x00000000)  returns 0x00 (0000ms, 0830ms total)
T1A94 001:548 JLINK_WriteReg(R4, 0x00000000)  returns 0x00 (0000ms, 0830ms total)
T1A94 001:548 JLINK_WriteReg(R5, 0x00000000)  returns 0x00 (0000ms, 0830ms total)
T1A94 001:548 JLINK_WriteReg(R6, 0x00000000)  returns 0x00 (0000ms, 0830ms total)
T1A94 001:548 JLINK_WriteReg(R7, 0x00000000)  returns 0x00 (0000ms, 0830ms total)
T1A94 001:548 JLINK_WriteReg(R8, 0x00000000)  returns 0x00 (0000ms, 0830ms total)
T1A94 001:548 JLINK_WriteReg(R9, 0x2000017C)  returns 0x00 (0001ms, 0831ms total)
T1A94 001:549 JLINK_WriteReg(R10, 0x00000000)  returns 0x00 (0000ms, 0831ms total)
T1A94 001:549 JLINK_WriteReg(R11, 0x00000000)  returns 0x00 (0000ms, 0831ms total)
T1A94 001:549 JLINK_WriteReg(R12, 0x00000000)  returns 0x00 (0000ms, 0831ms total)
T1A94 001:549 JLINK_WriteReg(R13 (SP), 0x20001000)  returns 0x00 (0000ms, 0831ms total)
T1A94 001:549 JLINK_WriteReg(R14, 0x20000001)  returns 0x00 (0000ms, 0831ms total)
T1A94 001:549 JLINK_WriteReg(R15 (PC), 0x20000108)  returns 0x00 (0000ms, 0831ms total)
T1A94 001:549 JLINK_WriteReg(XPSR, 0x01000000)  returns 0x00 (0000ms, 0831ms total)
T1A94 001:549 JLINK_WriteReg(MSP, 0x20001000)  returns 0x00 (0000ms, 0831ms total)
T1A94 001:549 JLINK_WriteReg(PSP, 0x20001000)  returns 0x00 (0000ms, 0831ms total)
T1A94 001:549 JLINK_WriteReg(CFBP, 0x00000000)  returns 0x00 (0000ms, 0831ms total)
T1A94 001:549 JLINK_SetBPEx(Addr = 0x20000000, Type = 0xFFFFFFF2)  returns 0x00000009 (0000ms, 0831ms total)
T1A94 001:549 JLINK_Go() (0002ms, 0833ms total)
T1A94 001:551 JLINK_IsHalted()  returns FALSE (0001ms, 0834ms total)
T1A94 001:554 JLINK_IsHalted()  returns FALSE (0000ms, 0833ms total)
T1A94 001:557 JLINK_IsHalted() -- CPU_ReadMem(2 bytes @ 0x20000000)  returns TRUE (0007ms, 0840ms total)
T1A94 001:564 JLINK_ReadReg(R15 (PC))  returns 0x20000000 (0000ms, 0833ms total)
T1A94 001:564 JLINK_ClrBPEx(BPHandle = 0x00000009)  returns 0x00 (0000ms, 0833ms total)
T1A94 001:564 JLINK_ReadReg(R0)  returns 0x00000000 (0000ms, 0833ms total)
T1A94 001:564 JLINK_WriteMem(0x20000180, 0x0400 Bytes, ...) -- Data:  70 47 21 B1 82 89 42 F4 00 42 82 81 03 E0 82 89 ... -- CPU_WriteMem(1024 bytes @ 0x20000180)  returns 0x400 (0015ms, 0848ms total)
T1A94 001:579 JLINK_WriteReg(R0, 0x08001000)  returns 0x00 (0000ms, 0848ms total)
T1A94 001:579 JLINK_WriteReg(R1, 0x00000400)  returns 0x00 (0000ms, 0848ms total)
T1A94 001:579 JLINK_WriteReg(R2, 0x20000180)  returns 0x00 (0000ms, 0848ms total)
T1A94 001:579 JLINK_WriteReg(R3, 0x00000000)  returns 0x00 (0000ms, 0848ms total)
T1A94 001:579 JLINK_WriteReg(R4, 0x00000000)  returns 0x00 (0000ms, 0848ms total)
T1A94 001:579 JLINK_WriteReg(R5, 0x00000000)  returns 0x00 (0000ms, 0848ms total)
T1A94 001:579 JLINK_WriteReg(R6, 0x00000000)  returns 0x00 (0000ms, 0848ms total)
T1A94 001:579 JLINK_WriteReg(R7, 0x00000000)  returns 0x00 (0000ms, 0848ms total)
T1A94 001:579 JLINK_WriteReg(R8, 0x00000000)  returns 0x00 (0000ms, 0848ms total)
T1A94 001:579 JLINK_WriteReg(R9, 0x2000017C)  returns 0x00 (0000ms, 0848ms total)
T1A94 001:579 JLINK_WriteReg(R10, 0x00000000)  returns 0x00 (0000ms, 0848ms total)
T1A94 001:579 JLINK_WriteReg(R11, 0x00000000)  returns 0x00 (0000ms, 0848ms total)
T1A94 001:579 JLINK_WriteReg(R12, 0x00000000)  returns 0x00 (0000ms, 0848ms total)
T1A94 001:579 JLINK_WriteReg(R13 (SP), 0x20001000)  returns 0x00 (0000ms, 0848ms total)
T1A94 001:579 JLINK_WriteReg(R14, 0x20000001)  returns 0x00 (0000ms, 0848ms total)
T1A94 001:579 JLINK_WriteReg(R15 (PC), 0x20000108)  returns 0x00 (0000ms, 0848ms total)
T1A94 001:579 JLINK_WriteReg(XPSR, 0x01000000)  returns 0x00 (0000ms, 0848ms total)
T1A94 001:579 JLINK_WriteReg(MSP, 0x20001000)  returns 0x00 (0000ms, 0848ms total)
T1A94 001:579 JLINK_WriteReg(PSP, 0x20001000)  returns 0x00 (0000ms, 0848ms total)
T1A94 001:579 JLINK_WriteReg(CFBP, 0x00000000)  returns 0x00 (0000ms, 0848ms total)
T1A94 001:579 JLINK_SetBPEx(Addr = 0x20000000, Type = 0xFFFFFFF2)  returns 0x0000000A (0000ms, 0848ms total)
T1A94 001:579 JLINK_Go() (0003ms, 0851ms total)
T1A94 001:582 JLINK_IsHalted()  returns FALSE (0001ms, 0852ms total)
T1A94 001:589 JLINK_IsHalted() -- CPU_ReadMem(2 bytes @ 0x20000000)  returns TRUE (0006ms, 0857ms total)
T1A94 001:595 JLINK_ReadReg(R15 (PC))  returns 0x20000000 (0000ms, 0851ms total)
T1A94 001:595 JLINK_ClrBPEx(BPHandle = 0x0000000A)  returns 0x00 (0000ms, 0851ms total)
T1A94 001:595 JLINK_ReadReg(R0)  returns 0x00000000 (0000ms, 0851ms total)
T1A94 001:596 JLINK_WriteMem(0x20000180, 0x0400 Bytes, ...) -- Data:  00 28 F9 D0 20 46 70 BD 10 B5 04 46 00 BF 20 21 ... -- CPU_WriteMem(1024 bytes @ 0x20000180)  returns 0x400 (0016ms, 0867ms total)
T1A94 001:612 JLINK_WriteReg(R0, 0x08001400)  returns 0x00 (0000ms, 0867ms total)
T1A94 001:612 JLINK_WriteReg(R1, 0x000000B4)  returns 0x00 (0000ms, 0867ms total)
T1A94 001:612 JLINK_WriteReg(R2, 0x20000180)  returns 0x00 (0000ms, 0867ms total)
T1A94 001:612 JLINK_WriteReg(R3, 0x00000000)  returns 0x00 (0000ms, 0867ms total)
T1A94 001:612 JLINK_WriteReg(R4, 0x00000000)  returns 0x00 (0000ms, 0867ms total)
T1A94 001:612 JLINK_WriteReg(R5, 0x00000000)  returns 0x00 (0000ms, 0867ms total)
T1A94 001:612 JLINK_WriteReg(R6, 0x00000000)  returns 0x00 (0000ms, 0867ms total)
T1A94 001:612 JLINK_WriteReg(R7, 0x00000000)  returns 0x00 (0000ms, 0867ms total)
T1A94 001:612 JLINK_WriteReg(R8, 0x00000000)  returns 0x00 (0000ms, 0867ms total)
T1A94 001:612 JLINK_WriteReg(R9, 0x2000017C)  returns 0x00 (0000ms, 0867ms total)
T1A94 001:612 JLINK_WriteReg(R10, 0x00000000)  returns 0x00 (0000ms, 0867ms total)
T1A94 001:612 JLINK_WriteReg(R11, 0x00000000)  returns 0x00 (0000ms, 0867ms total)
T1A94 001:612 JLINK_WriteReg(R12, 0x00000000)  returns 0x00 (0000ms, 0867ms total)
T1A94 001:612 JLINK_WriteReg(R13 (SP), 0x20001000)  returns 0x00 (0000ms, 0867ms total)
T1A94 001:612 JLINK_WriteReg(R14, 0x20000001)  returns 0x00 (0000ms, 0867ms total)
T1A94 001:612 JLINK_WriteReg(R15 (PC), 0x20000108)  returns 0x00 (0000ms, 0867ms total)
T1A94 001:612 JLINK_WriteReg(XPSR, 0x01000000)  returns 0x00 (0000ms, 0867ms total)
T1A94 001:612 JLINK_WriteReg(MSP, 0x20001000)  returns 0x00 (0000ms, 0867ms total)
T1A94 001:612 JLINK_WriteReg(PSP, 0x20001000)  returns 0x00 (0000ms, 0867ms total)
T1A94 001:612 JLINK_WriteReg(CFBP, 0x00000000)  returns 0x00 (0000ms, 0867ms total)
T1A94 001:612 JLINK_SetBPEx(Addr = 0x20000000, Type = 0xFFFFFFF2)  returns 0x0000000B (0000ms, 0867ms total)
T1A94 001:612 JLINK_Go() (0002ms, 0869ms total)
T1A94 001:614 JLINK_IsHalted() -- CPU_ReadMem(2 bytes @ 0x20000000)  returns TRUE (0007ms, 0876ms total)
T1A94 001:621 JLINK_ReadReg(R15 (PC))  returns 0x20000000 (0000ms, 0869ms total)
T1A94 001:621 JLINK_ClrBPEx(BPHandle = 0x0000000B)  returns 0x00 (0000ms, 0869ms total)
T1A94 001:621 JLINK_ReadReg(R0)  returns 0x00000000 (0000ms, 0869ms total)
T1A94 001:621 JLINK_WriteReg(R0, 0x00000002)  returns 0x00 (0000ms, 0869ms total)
T1A94 001:621 JLINK_WriteReg(R1, 0x000000B4)  returns 0x00 (0000ms, 0869ms total)
T1A94 001:621 JLINK_WriteReg(R2, 0x20000180)  returns 0x00 (0000ms, 0869ms total)
T1A94 001:621 JLINK_WriteReg(R3, 0x00000000)  returns 0x00 (0000ms, 0869ms total)
T1A94 001:621 JLINK_WriteReg(R4, 0x00000000)  returns 0x00 (0000ms, 0869ms total)
T1A94 001:621 JLINK_WriteReg(R5, 0x00000000)  returns 0x00 (0000ms, 0869ms total)
T1A94 001:621 JLINK_WriteReg(R6, 0x00000000)  returns 0x00 (0000ms, 0869ms total)
T1A94 001:621 JLINK_WriteReg(R7, 0x00000000)  returns 0x00 (0000ms, 0869ms total)
T1A94 001:621 JLINK_WriteReg(R8, 0x00000000)  returns 0x00 (0000ms, 0869ms total)
T1A94 001:621 JLINK_WriteReg(R9, 0x2000017C)  returns 0x00 (0000ms, 0869ms total)
T1A94 001:621 JLINK_WriteReg(R10, 0x00000000)  returns 0x00 (0000ms, 0869ms total)
T1A94 001:621 JLINK_WriteReg(R11, 0x00000000)  returns 0x00 (0000ms, 0869ms total)
T1A94 001:621 JLINK_WriteReg(R12, 0x00000000)  returns 0x00 (0000ms, 0869ms total)
T1A94 001:621 JLINK_WriteReg(R13 (SP), 0x20001000)  returns 0x00 (0000ms, 0869ms total)
T1A94 001:621 JLINK_WriteReg(R14, 0x20000001)  returns 0x00 (0000ms, 0869ms total)
T1A94 001:621 JLINK_WriteReg(R15 (PC), 0x20000082)  returns 0x00 (0000ms, 0869ms total)
T1A94 001:621 JLINK_WriteReg(XPSR, 0x01000000)  returns 0x00 (0000ms, 0869ms total)
T1A94 001:621 JLINK_WriteReg(MSP, 0x20001000)  returns 0x00 (0000ms, 0869ms total)
T1A94 001:621 JLINK_WriteReg(PSP, 0x20001000)  returns 0x00 (0000ms, 0869ms total)
T1A94 001:621 JLINK_WriteReg(CFBP, 0x00000000)  returns 0x00 (0000ms, 0869ms total)
T1A94 001:621 JLINK_SetBPEx(Addr = 0x20000000, Type = 0xFFFFFFF2)  returns 0x0000000C (0000ms, 0869ms total)
T1A94 001:621 JLINK_Go() (0003ms, 0872ms total)
T1A94 001:624 JLINK_IsHalted() -- CPU_ReadMem(2 bytes @ 0x20000000)  returns TRUE (0007ms, 0879ms total)
T1A94 001:631 JLINK_ReadReg(R15 (PC))  returns 0x20000000 (0000ms, 0872ms total)
T1A94 001:631 JLINK_ClrBPEx(BPHandle = 0x0000000C)  returns 0x00 (0000ms, 0872ms total)
T1A94 001:631 JLINK_ReadReg(R0)  returns 0x00000000 (0000ms, 0872ms total)
T1A94 001:689 JLINK_WriteMem(0x20000000, 0x0180 Bytes, ...) -- Data:  00 BE 0A E0 0D 78 2D 06 68 40 08 24 40 00 00 D3 ... -- CPU_WriteMem(384 bytes @ 0x20000000)  returns 0x180 (0007ms, 0879ms total)
T1A94 001:696 JLINK_WriteReg(R0, 0x08000000)  returns 0x00 (0000ms, 0879ms total)
T1A94 001:696 JLINK_WriteReg(R1, 0x017D7840)  returns 0x00 (0000ms, 0879ms total)
T1A94 001:696 JLINK_WriteReg(R2, 0x00000003)  returns 0x00 (0000ms, 0879ms total)
T1A94 001:696 JLINK_WriteReg(R3, 0x00000000)  returns 0x00 (0000ms, 0879ms total)
T1A94 001:696 JLINK_WriteReg(R4, 0x00000000)  returns 0x00 (0000ms, 0879ms total)
T1A94 001:696 JLINK_WriteReg(R5, 0x00000000)  returns 0x00 (0000ms, 0879ms total)
T1A94 001:696 JLINK_WriteReg(R6, 0x00000000)  returns 0x00 (0000ms, 0879ms total)
T1A94 001:696 JLINK_WriteReg(R7, 0x00000000)  returns 0x00 (0000ms, 0879ms total)
T1A94 001:696 JLINK_WriteReg(R8, 0x00000000)  returns 0x00 (0000ms, 0879ms total)
T1A94 001:696 JLINK_WriteReg(R9, 0x2000017C)  returns 0x00 (0000ms, 0879ms total)
T1A94 001:696 JLINK_WriteReg(R10, 0x00000000)  returns 0x00 (0000ms, 0879ms total)
T1A94 001:696 JLINK_WriteReg(R11, 0x00000000)  returns 0x00 (0000ms, 0879ms total)
T1A94 001:696 JLINK_WriteReg(R12, 0x00000000)  returns 0x00 (0000ms, 0879ms total)
T1A94 001:696 JLINK_WriteReg(R13 (SP), 0x20001000)  returns 0x00 (0000ms, 0879ms total)
T1A94 001:696 JLINK_WriteReg(R14, 0x20000001)  returns 0x00 (0000ms, 0879ms total)
T1A94 001:696 JLINK_WriteReg(R15 (PC), 0x20000054)  returns 0x00 (0000ms, 0879ms total)
T1A94 001:696 JLINK_WriteReg(XPSR, 0x01000000)  returns 0x00 (0000ms, 0879ms total)
T1A94 001:696 JLINK_WriteReg(MSP, 0x20001000)  returns 0x00 (0000ms, 0879ms total)
T1A94 001:696 JLINK_WriteReg(PSP, 0x20001000)  returns 0x00 (0000ms, 0879ms total)
T1A94 001:696 JLINK_WriteReg(CFBP, 0x00000000)  returns 0x00 (0000ms, 0879ms total)
T1A94 001:696 JLINK_SetBPEx(Addr = 0x20000000, Type = 0xFFFFFFF2) -- CPU_ReadMem(2 bytes @ 0x20000000)  returns 0x0000000D (0001ms, 0880ms total)
T1A94 001:697 JLINK_Go() -- CPU_WriteMem(2 bytes @ 0x20000000) (0003ms, 0883ms total)
T1A94 001:700 JLINK_IsHalted() -- CPU_ReadMem(2 bytes @ 0x20000000)  returns TRUE (0007ms, 0890ms total)
T1A94 001:707 JLINK_ReadReg(R15 (PC))  returns 0x20000000 (0000ms, 0883ms total)
T1A94 001:707 JLINK_ClrBPEx(BPHandle = 0x0000000D)  returns 0x00 (0000ms, 0883ms total)
T1A94 001:707 JLINK_ReadReg(R0)  returns 0x00000000 (0000ms, 0883ms total)
T1A94 001:707 JLINK_WriteReg(R0, 0xFFFFFFFF)  returns 0x00 (0000ms, 0883ms total)
T1A94 001:707 JLINK_WriteReg(R1, 0x08000000)  returns 0x00 (0000ms, 0883ms total)
T1A94 001:707 JLINK_WriteReg(R2, 0x000014B4)  returns 0x00 (0000ms, 0883ms total)
T1A94 001:707 JLINK_WriteReg(R3, 0x04C11DB7)  returns 0x00 (0000ms, 0883ms total)
T1A94 001:707 JLINK_WriteReg(R4, 0x00000000)  returns 0x00 (0000ms, 0883ms total)
T1A94 001:707 JLINK_WriteReg(R5, 0x00000000)  returns 0x00 (0000ms, 0883ms total)
T1A94 001:707 JLINK_WriteReg(R6, 0x00000000)  returns 0x00 (0000ms, 0883ms total)
T1A94 001:707 JLINK_WriteReg(R7, 0x00000000)  returns 0x00 (0000ms, 0883ms total)
T1A94 001:707 JLINK_WriteReg(R8, 0x00000000)  returns 0x00 (0000ms, 0883ms total)
T1A94 001:707 JLINK_WriteReg(R9, 0x2000017C)  returns 0x00 (0000ms, 0883ms total)
T1A94 001:707 JLINK_WriteReg(R10, 0x00000000)  returns 0x00 (0000ms, 0883ms total)
T1A94 001:707 JLINK_WriteReg(R11, 0x00000000)  returns 0x00 (0000ms, 0883ms total)
T1A94 001:707 JLINK_WriteReg(R12, 0x00000000)  returns 0x00 (0000ms, 0883ms total)
T1A94 001:707 JLINK_WriteReg(R13 (SP), 0x20001000)  returns 0x00 (0000ms, 0883ms total)
T1A94 001:707 JLINK_WriteReg(R14, 0x20000001)  returns 0x00 (0000ms, 0883ms total)
T1A94 001:707 JLINK_WriteReg(R15 (PC), 0x20000002)  returns 0x00 (0000ms, 0883ms total)
T1A94 001:707 JLINK_WriteReg(XPSR, 0x01000000)  returns 0x00 (0000ms, 0883ms total)
T1A94 001:707 JLINK_WriteReg(MSP, 0x20001000)  returns 0x00 (0000ms, 0883ms total)
T1A94 001:707 JLINK_WriteReg(PSP, 0x20001000)  returns 0x00 (0000ms, 0883ms total)
T1A94 001:707 JLINK_WriteReg(CFBP, 0x00000000)  returns 0x00 (0000ms, 0883ms total)
T1A94 001:707 JLINK_SetBPEx(Addr = 0x20000000, Type = 0xFFFFFFF2)  returns 0x0000000E (0000ms, 0883ms total)
T1A94 001:708 JLINK_Go() (0002ms, 0886ms total)
T1A94 001:710 JLINK_IsHalted()  returns FALSE (0001ms, 0887ms total)
T1A94 001:723 JLINK_IsHalted()  returns FALSE (0001ms, 0887ms total)
T1A94 001:726 JLINK_IsHalted()  returns FALSE (0001ms, 0887ms total)
T1A94 001:729 JLINK_IsHalted()  returns FALSE (0001ms, 0887ms total)
T1A94 001:732 JLINK_IsHalted()  returns FALSE (0001ms, 0887ms total)
T1A94 001:735 JLINK_IsHalted()  returns FALSE (0001ms, 0887ms total)
T1A94 001:738 JLINK_IsHalted()  returns FALSE (0001ms, 0887ms total)
T1A94 001:740 JLINK_IsHalted() -- CPU_ReadMem(2 bytes @ 0x20000000)  returns TRUE (0007ms, 0893ms total)
T1A94 001:747 JLINK_ReadReg(R15 (PC))  returns 0x20000000 (0000ms, 0886ms total)
T1A94 001:747 JLINK_ClrBPEx(BPHandle = 0x0000000E)  returns 0x00 (0000ms, 0886ms total)
T1A94 001:747 JLINK_ReadReg(R0)  returns 0x62ACF364 (0000ms, 0886ms total)
T1A94 001:748 JLINK_WriteReg(R0, 0x00000003)  returns 0x00 (0000ms, 0886ms total)
T1A94 001:748 JLINK_WriteReg(R1, 0x08000000)  returns 0x00 (0000ms, 0886ms total)
T1A94 001:748 JLINK_WriteReg(R2, 0x000014B4)  returns 0x00 (0000ms, 0886ms total)
T1A94 001:748 JLINK_WriteReg(R3, 0x04C11DB7)  returns 0x00 (0000ms, 0886ms total)
T1A94 001:748 JLINK_WriteReg(R4, 0x00000000)  returns 0x00 (0000ms, 0886ms total)
T1A94 001:748 JLINK_WriteReg(R5, 0x00000000)  returns 0x00 (0000ms, 0886ms total)
T1A94 001:748 JLINK_WriteReg(R6, 0x00000000)  returns 0x00 (0000ms, 0886ms total)
T1A94 001:748 JLINK_WriteReg(R7, 0x00000000)  returns 0x00 (0000ms, 0886ms total)
T1A94 001:748 JLINK_WriteReg(R8, 0x00000000)  returns 0x00 (0000ms, 0886ms total)
T1A94 001:748 JLINK_WriteReg(R9, 0x2000017C)  returns 0x00 (0000ms, 0886ms total)
T1A94 001:748 JLINK_WriteReg(R10, 0x00000000)  returns 0x00 (0000ms, 0886ms total)
T1A94 001:748 JLINK_WriteReg(R11, 0x00000000)  returns 0x00 (0000ms, 0886ms total)
T1A94 001:748 JLINK_WriteReg(R12, 0x00000000)  returns 0x00 (0000ms, 0886ms total)
T1A94 001:748 JLINK_WriteReg(R13 (SP), 0x20001000)  returns 0x00 (0000ms, 0886ms total)
T1A94 001:748 JLINK_WriteReg(R14, 0x20000001)  returns 0x00 (0000ms, 0886ms total)
T1A94 001:748 JLINK_WriteReg(R15 (PC), 0x20000082)  returns 0x00 (0000ms, 0886ms total)
T1A94 001:748 JLINK_WriteReg(XPSR, 0x01000000)  returns 0x00 (0000ms, 0886ms total)
T1A94 001:748 JLINK_WriteReg(MSP, 0x20001000)  returns 0x00 (0000ms, 0886ms total)
T1A94 001:748 JLINK_WriteReg(PSP, 0x20001000)  returns 0x00 (0000ms, 0886ms total)
